T264C 000:074.380   SEGGER J-Link V6.86 Log File
T264C 000:074.554   DLL Compiled: Sep 24 2020 17:31:31
T264C 000:074.560   Logging started @ 2021-07-14 09:24
T264C 000:074.566 - 74.569ms
T264C 000:074.576 JLINK_SetWarnOutHandler(...)
T264C 000:074.584 - 0.010ms
T264C 000:074.591 JLINK_OpenEx(...)
T264C 000:076.417   Firmware: J-Link ARM-OB STM32 compiled Aug 22 2012 19:52:04
T264C 000:080.183   Hardware: V7.00
T264C 000:080.204   S/N: 20200908
T264C 000:080.212   OEM: SEGGER
T264C 000:080.221   Feature(s): RDI,FlashDL,FlashBP,JFlash,GDBFull
T264C 000:082.131   TELNET listener socket opened on port 19021
T264C 000:082.369   WEBSRV Starting webserver
T264C 000:082.634   WEBSRV Webserver running on local port 19080
T264C 000:082.650 - 8.064ms returns "O.K."
T264C 000:082.683 JLINK_GetEmuCaps()
T264C 000:082.692 - 0.013ms returns 0x88EA5833
T264C 000:082.708 JLINK_TIF_GetAvailable(...)
T264C 000:083.233 - 0.535ms
T264C 000:083.255 JLINK_SetErrorOutHandler(...)
T264C 000:083.261 - 0.009ms
T264C 000:083.281 JLINK_ExecCommand("ProjectFile = "C:\skr\project\2021electronic_design_competiton\practice_in_summer_vacation\handwrite_board\code\JLinkSettings.ini"", ...). 
T264C 000:091.336 - 8.066ms returns 0x00
T264C 000:097.944 JLINK_ExecCommand("Device = STM32F103ZE", ...). 
T264C 000:103.061   Device "STM32F103ZE" selected.
T264C 000:103.403 - 5.438ms returns 0x00
T264C 000:103.427 JLINK_GetHardwareVersion()
T264C 000:103.434 - 0.009ms returns 70000
T264C 000:103.449 JLINK_GetDLLVersion()
T264C 000:103.455 - 0.008ms returns 68600
T264C 000:103.463 JLINK_GetOEMString(...)
T264C 000:103.470 JLINK_GetFirmwareString(...)
T264C 000:103.477 - 0.009ms
T264C 000:119.278 JLINK_GetDLLVersion()
T264C 000:119.300 - 0.025ms returns 68600
T264C 000:119.308 JLINK_GetCompileDateTime()
T264C 000:119.314 - 0.008ms
T264C 000:122.301 JLINK_GetFirmwareString(...)
T264C 000:122.316 - 0.018ms
T264C 000:127.579 JLINK_GetHardwareVersion()
T264C 000:127.599 - 0.022ms returns 70000
T264C 000:130.417 JLINK_GetSN()
T264C 000:130.431 - 0.017ms returns 20200908
T264C 000:133.473 JLINK_GetOEMString(...)
T264C 000:139.501 JLINK_TIF_Select(JLINKARM_TIF_SWD)
T264C 000:141.105 - 1.616ms returns 0x00
T264C 000:141.127 JLINK_HasError()
T264C 000:141.143 JLINK_SetSpeed(10000)
T264C 000:141.610 - 0.474ms
T264C 000:141.625 JLINK_GetId()
T264C 000:146.973   Found SW-DP with ID 0x1BA01477
T264C 000:181.125   Found SW-DP with ID 0x1BA01477
T264C 000:188.084   Old FW that does not support reading DPIDR via DAP jobs
T264C 000:200.263   Unknown DP version. Assuming DPv0
T264C 000:203.112   Scanning AP map to find all available APs
T264C 000:212.190   AP[1]: Stopped AP scan as end of AP map has been reached
T264C 000:214.935   AP[0]: AHB-AP (IDR: 0x14770011)
T264C 000:219.986   Iterating through AP map to find AHB-AP to use
T264C 000:233.750   AP[0]: Core found
T264C 000:236.637   AP[0]: AHB-AP ROM base: 0xE00FF000
T264C 000:245.779   CPUID register: 0x411FC231. Implementer code: 0x41 (ARM)
T264C 000:248.590   Found Cortex-M3 r1p1, Little endian.
T264C 000:351.500   -- Max. mem block: 0x00002C18
T264C 000:351.536   CPU_ReadMem(4 bytes @ 0xE000EDF0)
T264C 000:353.759   CPU_ReadMem(4 bytes @ 0xE0002000)
T264C 000:357.889   FPUnit: 6 code (BP) slots and 2 literal slots
T264C 000:357.918   CPU_ReadMem(4 bytes @ 0xE000EDFC)
T264C 000:358.767   CPU_WriteMem(4 bytes @ 0xE000EDFC)
T264C 000:360.045   CPU_ReadMem(4 bytes @ 0xE0001000)
T264C 000:361.373   CPU_WriteMem(4 bytes @ 0xE0001000)
T264C 000:362.711   CPU_ReadMem(4 bytes @ 0xE000ED88)
T264C 000:363.725   CPU_WriteMem(4 bytes @ 0xE000ED88)
T264C 000:365.067   CPU_ReadMem(4 bytes @ 0xE000ED88)
T264C 000:365.838   CPU_WriteMem(4 bytes @ 0xE000ED88)
T264C 000:370.717   CoreSight components:
T264C 000:373.790   ROMTbl[0] @ E00FF000
T264C 000:373.816   CPU_ReadMem(64 bytes @ 0xE00FF000)
T264C 000:375.764   CPU_ReadMem(32 bytes @ 0xE000EFE0)
T264C 000:379.948   ROMTbl[0][0]: E000E000, CID: B105E00D, PID: 001BB000 SCS
T264C 000:379.964   CPU_ReadMem(32 bytes @ 0xE0001FE0)
T264C 000:384.553   ROMTbl[0][1]: E0001000, CID: B105E00D, PID: 001BB002 DWT
T264C 000:384.582   CPU_ReadMem(32 bytes @ 0xE0002FE0)
T264C 000:388.867   ROMTbl[0][2]: E0002000, CID: B105E00D, PID: 000BB003 FPB
T264C 000:388.907   CPU_ReadMem(32 bytes @ 0xE0000FE0)
T264C 000:393.302   ROMTbl[0][3]: E0000000, CID: B105E00D, PID: 001BB001 ITM
T264C 000:393.330   CPU_ReadMem(32 bytes @ 0xE0040FE0)
T264C 000:398.268   ROMTbl[0][4]: E0040000, CID: B105900D, PID: 001BB923 TPIU-Lite
T264C 000:398.298   CPU_ReadMem(32 bytes @ 0xE0041FE0)
T264C 000:404.171   ROMTbl[0][5]: E0041000, CID: B105900D, PID: 101BB924 ETM-M3
T264C 000:405.640 - 264.022ms returns 0x1BA01477
T264C 000:405.678 JLINK_GetDLLVersion()
T264C 000:405.685 - 0.027ms returns 68600
T264C 000:405.766 JLINK_CORE_GetFound()
T264C 000:405.790 - 0.045ms returns 0x30000FF
T264C 000:405.817 JLINK_GetDebugInfo(0x100 = JLINKARM_ROM_TABLE_ADDR_INDEX)
T264C 000:405.824   Value=0xE00FF000
T264C 000:405.833 - 0.018ms returns 0
T264C 000:408.728 JLINK_GetDebugInfo(0x100 = JLINKARM_ROM_TABLE_ADDR_INDEX)
T264C 000:408.740   Value=0xE00FF000
T264C 000:408.748 - 0.023ms returns 0
T264C 000:408.756 JLINK_GetDebugInfo(0x101 = JLINKARM_DEBUG_INFO_ETM_ADDR_INDEX)
T264C 000:408.762   Value=0xE0041000
T264C 000:408.770 - 0.016ms returns 0
T264C 000:408.783 JLINK_ReadMemEx(0xE0041FD0, 0x20 Bytes, Flags = 0x02000004)
T264C 000:408.839   CPU_ReadMem(32 bytes @ 0xE0041FD0)
T264C 000:410.060   Data:  04 00 00 00 00 00 00 00 00 00 00 00 00 00 00 00 ...
T264C 000:410.073 - 1.292ms returns 32 (0x20)
T264C 000:410.083 JLINK_GetDebugInfo(0x102 = JLINKARM_DEBUG_INFO_MTB_ADDR_INDEX)
T264C 000:410.089   Value=0x00000000
T264C 000:410.097 - 0.017ms returns 0
T264C 000:410.105 JLINK_GetDebugInfo(0x103 = JLINKARM_DEBUG_INFO_TPIU_ADDR_INDEX)
T264C 000:410.110   Value=0xE0040000
T264C 000:410.118 - 0.016ms returns 0
T264C 000:410.126 JLINK_GetDebugInfo(0x104 = JLINKARM_DEBUG_INFO_ITM_ADDR_INDEX)
T264C 000:410.131   Value=0xE0000000
T264C 000:410.139 - 0.016ms returns 0
T264C 000:410.147 JLINK_GetDebugInfo(0x105 = JLINKARM_DEBUG_INFO_DWT_ADDR_INDEX)
T264C 000:410.152   Value=0xE0001000
T264C 000:410.162 - 0.017ms returns 0
T264C 000:410.169 JLINK_GetDebugInfo(0x106 = JLINKARM_DEBUG_INFO_FPB_ADDR_INDEX)
T264C 000:410.175   Value=0xE0002000
T264C 000:410.183 - 0.016ms returns 0
T264C 000:410.190 JLINK_GetDebugInfo(0x107 = JLINKARM_DEBUG_INFO_NVIC_ADDR_INDEX)
T264C 000:410.195   Value=0xE000E000
T264C 000:410.203 - 0.016ms returns 0
T264C 000:410.211 JLINK_GetDebugInfo(0x10C = JLINKARM_DEBUG_INFO_DBG_ADDR_INDEX)
T264C 000:410.216   Value=0xE000EDF0
T264C 000:410.224 - 0.016ms returns 0
T264C 000:410.231 JLINK_GetDebugInfo(0x01 = Unknown)
T264C 000:410.237   Value=0x00000000
T264C 000:410.245 - 0.016ms returns 0
T264C 000:410.252 JLINK_ReadMemU32(0xE000ED00, 0x1 Items)
T264C 000:410.262   CPU_ReadMem(4 bytes @ 0xE000ED00)
T264C 000:411.408   Data:  31 C2 1F 41
T264C 000:411.421   Debug reg: CPUID
T264C 000:411.429 - 1.179ms returns 1 (0x1)
T264C 000:411.439 JLINK_GetDebugInfo(0x10F = JLINKARM_DEBUG_INFO_HAS_CORTEX_M_SECURITY_EXT_INDEX)
T264C 000:411.445   Value=0x00000000
T264C 000:411.453 - 0.017ms returns 0
T264C 000:411.461 JLINK_HasError()
T264C 000:411.469 JLINK_SetResetType(JLINKARM_CM3_RESET_TYPE_NORMAL)
T264C 000:411.475 - 0.008ms returns JLINKARM_CM3_RESET_TYPE_NORMAL
T264C 000:411.483 JLINK_Reset()
T264C 000:411.499   CPU is running
T264C 000:411.509   CPU_WriteMem(4 bytes @ 0xE000EDF0)
T264C 000:412.765   CPU is running
T264C 000:412.780   CPU_WriteMem(4 bytes @ 0xE000EDFC)
T264C 000:418.002   Reset: Halt core after reset via DEMCR.VC_CORERESET.
T264C 000:422.697   Reset: Reset device via AIRCR.SYSRESETREQ.
T264C 000:422.721   CPU is running
T264C 000:422.733   CPU_WriteMem(4 bytes @ 0xE000ED0C)
T264C 000:477.898   CPU_ReadMem(4 bytes @ 0xE000EDF0)
T264C 000:478.756   CPU_ReadMem(4 bytes @ 0xE000EDF0)
T264C 000:480.589   CPU is running
T264C 000:480.647   CPU_WriteMem(4 bytes @ 0xE000EDF0)
T264C 000:482.008   CPU is running
T264C 000:482.051   CPU_WriteMem(4 bytes @ 0xE000EDFC)
T264C 000:488.974   CPU_ReadMem(4 bytes @ 0xE000EDF0)
T264C 000:495.970   CPU_WriteMem(4 bytes @ 0xE0002000)
T264C 000:497.608   CPU_ReadMem(4 bytes @ 0xE000EDFC)
T264C 000:499.001   CPU_ReadMem(4 bytes @ 0xE0001000)
T264C 000:500.424 - 88.962ms
T264C 000:500.480 JLINK_Halt()
T264C 000:500.487 - 0.025ms returns 0x00
T264C 000:500.622 JLINK_ReadMemU32(0xE000EDF0, 0x1 Items)
T264C 000:500.643   CPU_ReadMem(4 bytes @ 0xE000EDF0)
T264C 000:501.702   Data:  03 00 03 00
T264C 000:501.725   Debug reg: DHCSR
T264C 000:501.734 - 1.114ms returns 1 (0x1)
T264C 000:501.754 JLINK_WriteU32_64(0xE000EDF0, 0xA05F0003)
T264C 000:501.763   Debug reg: DHCSR
T264C 000:501.788   CPU_WriteMem(4 bytes @ 0xE000EDF0)
T264C 000:503.150 - 1.414ms returns 0 (0x00000000)
T264C 000:503.180 JLINK_WriteU32_64(0xE000EDFC, 0x01000000)
T264C 000:503.188   Debug reg: DEMCR
T264C 000:503.207   CPU_WriteMem(4 bytes @ 0xE000EDFC)
T264C 000:504.219 - 1.051ms returns 0 (0x00000000)
T264C 000:516.368 JLINK_GetHWStatus(...)
T264C 000:517.031 - 0.673ms returns 0
T264C 000:526.122 JLINK_GetNumBPUnits(Type = 0xFFFFFF00)
T264C 000:526.148 - 0.029ms returns 0x06
T264C 000:526.157 JLINK_GetNumBPUnits(Type = 0xF0)
T264C 000:526.185 - 0.030ms returns 0x2000
T264C 000:526.208 JLINK_GetNumWPUnits()
T264C 000:526.214 - 0.008ms returns 4
T264C 000:535.592 JLINK_GetSpeed()
T264C 000:535.617 - 0.028ms returns 4000
T264C 000:540.869 JLINK_ReadMemU32(0xE000E004, 0x1 Items)
T264C 000:540.898   CPU_ReadMem(4 bytes @ 0xE000E004)
T264C 000:542.302   Data:  01 00 00 00
T264C 000:542.334 - 1.468ms returns 1 (0x1)
T264C 000:542.349 JLINK_ReadMemU32(0xE000E004, 0x1 Items)
T264C 000:542.366   CPU_ReadMem(4 bytes @ 0xE000E004)
T264C 000:543.696   Data:  01 00 00 00
T264C 000:543.724 - 1.378ms returns 1 (0x1)
T264C 000:543.738 JLINK_WriteMemEx(0xE0001000, 0x0000001C Bytes, Flags = 0x02000004)
T264C 000:543.746   Data:  01 00 00 00 00 00 00 00 00 00 00 00 00 00 00 00 ...
T264C 000:544.028   CPU_WriteMem(28 bytes @ 0xE0001000)
T264C 000:545.762 - 2.060ms returns 0x1C
T264C 000:545.814 JLINK_Halt()
T264C 000:545.820 - 0.009ms returns 0x00
T264C 000:545.828 JLINK_IsHalted()
T264C 000:545.835 - 0.009ms returns TRUE
T264C 000:548.841 JLINK_WriteMem(0x20000000, 0x164 Bytes, ...)
T264C 000:548.864   Data:  00 BE 0A E0 0D 78 2D 06 68 40 08 24 40 00 00 D3 ...
T264C 000:549.338   CPU_WriteMem(356 bytes @ 0x20000000)
T264C 000:554.822 - 6.003ms returns 0x164
T264C 000:555.020 JLINK_HasError()
T264C 000:555.037 JLINK_WriteReg(R0, 0x08000000)
T264C 000:555.065 - 0.031ms returns 0
T264C 000:555.073 JLINK_WriteReg(R1, 0x00B71B00)
T264C 000:555.080 - 0.009ms returns 0
T264C 000:555.087 JLINK_WriteReg(R2, 0x00000001)
T264C 000:555.093 - 0.008ms returns 0
T264C 000:555.100 JLINK_WriteReg(R3, 0x00000000)
T264C 000:555.106 - 0.008ms returns 0
T264C 000:555.113 JLINK_WriteReg(R4, 0x00000000)
T264C 000:555.119 - 0.008ms returns 0
T264C 000:555.126 JLINK_WriteReg(R5, 0x00000000)
T264C 000:555.132 - 0.008ms returns 0
T264C 000:555.139 JLINK_WriteReg(R6, 0x00000000)
T264C 000:555.145 - 0.008ms returns 0
T264C 000:555.152 JLINK_WriteReg(R7, 0x00000000)
T264C 000:555.158 - 0.008ms returns 0
T264C 000:555.165 JLINK_WriteReg(R8, 0x00000000)
T264C 000:555.183 - 0.021ms returns 0
T264C 000:555.191 JLINK_WriteReg(R9, 0x20000160)
T264C 000:555.197 - 0.008ms returns 0
T264C 000:555.204 JLINK_WriteReg(R10, 0x00000000)
T264C 000:555.210 - 0.008ms returns 0
T264C 000:555.217 JLINK_WriteReg(R11, 0x00000000)
T264C 000:555.223 - 0.008ms returns 0
T264C 000:555.230 JLINK_WriteReg(R12, 0x00000000)
T264C 000:555.236 - 0.008ms returns 0
T264C 000:555.243 JLINK_WriteReg(R13 (SP), 0x20001000)
T264C 000:555.250 - 0.009ms returns 0
T264C 000:555.257 JLINK_WriteReg(R14, 0x20000001)
T264C 000:555.263 - 0.008ms returns 0
T264C 000:555.270 JLINK_WriteReg(R15 (PC), 0x20000038)
T264C 000:555.288 - 0.023ms returns 0
T264C 000:555.318 JLINK_WriteReg(XPSR, 0x01000000)
T264C 000:555.327 - 0.012ms returns 0
T264C 000:555.359 JLINK_WriteReg(MSP, 0x20001000)
T264C 000:555.368 - 0.012ms returns 0
T264C 000:555.376 JLINK_WriteReg(PSP, 0x20001000)
T264C 000:555.384 - 0.011ms returns 0
T264C 000:555.392 JLINK_WriteReg(CFBP, 0x00000000)
T264C 000:555.399 - 0.009ms returns 0
T264C 000:555.423 JLINK_SetBPEx(Addr = 0x20000000, Type = 0xFFFFFFF2)
T264C 000:555.453   CPU_ReadMem(2 bytes @ 0x20000000)
T264C 000:556.709 - 1.312ms returns 0x00000001
T264C 000:556.749 JLINK_Go()
T264C 000:556.763   CPU_WriteMem(2 bytes @ 0x20000000)
T264C 000:558.599   CPU_ReadMem(4 bytes @ 0xE0001000)
T264C 000:560.044   CPU_WriteMem(4 bytes @ 0xE0002008)
T264C 000:560.075   CPU_WriteMem(4 bytes @ 0xE000200C)
T264C 000:560.084   CPU_WriteMem(4 bytes @ 0xE0002010)
T264C 000:560.093   CPU_WriteMem(4 bytes @ 0xE0002014)
T264C 000:560.102   CPU_WriteMem(4 bytes @ 0xE0002018)
T264C 000:560.111   CPU_WriteMem(4 bytes @ 0xE000201C)
T264C 000:563.109   CPU_WriteMem(4 bytes @ 0xE0001004)
T264C 000:568.637 - 11.920ms
T264C 000:568.678 JLINK_IsHalted()
T264C 000:572.936   CPU_ReadMem(2 bytes @ 0x20000000)
T264C 000:574.169 - 5.509ms returns TRUE
T264C 000:574.198 JLINK_ReadReg(R15 (PC))
T264C 000:574.211 - 0.015ms returns 0x20000000
T264C 000:574.220 JLINK_ClrBPEx(BPHandle = 0x00000001)
T264C 000:574.227 - 0.010ms returns 0x00
T264C 000:574.234 JLINK_ReadReg(R0)
T264C 000:574.241 - 0.009ms returns 0x00000000
T264C 000:574.632 JLINK_HasError()
T264C 000:574.650 JLINK_WriteReg(R0, 0x08000000)
T264C 000:574.659 - 0.012ms returns 0
T264C 000:574.667 JLINK_WriteReg(R1, 0x00B71B00)
T264C 000:574.673 - 0.009ms returns 0
T264C 000:574.681 JLINK_WriteReg(R2, 0x00000001)
T264C 000:574.687 - 0.009ms returns 0
T264C 000:574.694 JLINK_WriteReg(R3, 0x00000000)
T264C 000:574.700 - 0.008ms returns 0
T264C 000:574.708 JLINK_WriteReg(R4, 0x00000000)
T264C 000:574.714 - 0.008ms returns 0
T264C 000:574.721 JLINK_WriteReg(R5, 0x00000000)
T264C 000:574.727 - 0.008ms returns 0
T264C 000:574.734 JLINK_WriteReg(R6, 0x00000000)
T264C 000:574.740 - 0.008ms returns 0
T264C 000:574.748 JLINK_WriteReg(R7, 0x00000000)
T264C 000:574.754 - 0.008ms returns 0
T264C 000:574.761 JLINK_WriteReg(R8, 0x00000000)
T264C 000:574.767 - 0.009ms returns 0
T264C 000:574.774 JLINK_WriteReg(R9, 0x20000160)
T264C 000:574.780 - 0.008ms returns 0
T264C 000:574.788 JLINK_WriteReg(R10, 0x00000000)
T264C 000:574.794 - 0.009ms returns 0
T264C 000:574.801 JLINK_WriteReg(R11, 0x00000000)
T264C 000:574.807 - 0.008ms returns 0
T264C 000:574.814 JLINK_WriteReg(R12, 0x00000000)
T264C 000:574.820 - 0.008ms returns 0
T264C 000:574.828 JLINK_WriteReg(R13 (SP), 0x20001000)
T264C 000:574.834 - 0.009ms returns 0
T264C 000:574.842 JLINK_WriteReg(R14, 0x20000001)
T264C 000:574.848 - 0.009ms returns 0
T264C 000:574.855 JLINK_WriteReg(R15 (PC), 0x2000007C)
T264C 000:574.861 - 0.008ms returns 0
T264C 000:574.868 JLINK_WriteReg(XPSR, 0x01000000)
T264C 000:574.874 - 0.008ms returns 0
T264C 000:574.882 JLINK_WriteReg(MSP, 0x20001000)
T264C 000:574.888 - 0.008ms returns 0
T264C 000:574.895 JLINK_WriteReg(PSP, 0x20001000)
T264C 000:574.901 - 0.008ms returns 0
T264C 000:574.908 JLINK_WriteReg(CFBP, 0x00000000)
T264C 000:574.914 - 0.008ms returns 0
T264C 000:574.922 JLINK_SetBPEx(Addr = 0x20000000, Type = 0xFFFFFFF2)
T264C 000:574.933 - 0.014ms returns 0x00000002
T264C 000:574.941 JLINK_Go()
T264C 000:574.955   CPU_ReadMem(4 bytes @ 0xE0001000)
T264C 000:580.427 - 5.498ms
T264C 000:580.451 JLINK_IsHalted()
T264C 000:581.361 - 0.919ms returns FALSE
T264C 000:581.380 JLINK_HasError()
T264C 000:596.071 JLINK_IsHalted()
T264C 000:597.545 - 1.496ms returns FALSE
T264C 000:597.579 JLINK_HasError()
T264C 000:599.860 JLINK_IsHalted()
T264C 000:601.067 - 1.214ms returns FALSE
T264C 000:601.082 JLINK_HasError()
T264C 000:602.806 JLINK_IsHalted()
T264C 000:606.869   CPU_ReadMem(2 bytes @ 0x20000000)
T264C 000:607.801 - 5.002ms returns TRUE
T264C 000:607.818 JLINK_ReadReg(R15 (PC))
T264C 000:607.828 - 0.012ms returns 0x20000000
T264C 000:607.836 JLINK_ClrBPEx(BPHandle = 0x00000002)
T264C 000:607.885 - 0.055ms returns 0x00
T264C 000:607.898 JLINK_ReadReg(R0)
T264C 000:607.905 - 0.009ms returns 0x00000000
T264C 000:659.943 JLINK_HasError()
T264C 000:659.977 JLINK_WriteReg(R0, 0x00000001)
T264C 000:660.012 - 0.038ms returns 0
T264C 000:660.021 JLINK_WriteReg(R1, 0x00B71B00)
T264C 000:660.028 - 0.009ms returns 0
T264C 000:660.052 JLINK_WriteReg(R2, 0x00000001)
T264C 000:660.058 - 0.009ms returns 0
T264C 000:660.066 JLINK_WriteReg(R3, 0x00000000)
T264C 000:660.072 - 0.008ms returns 0
T264C 000:660.079 JLINK_WriteReg(R4, 0x00000000)
T264C 000:660.085 - 0.008ms returns 0
T264C 000:660.092 JLINK_WriteReg(R5, 0x00000000)
T264C 000:660.098 - 0.008ms returns 0
T264C 000:660.106 JLINK_WriteReg(R6, 0x00000000)
T264C 000:660.111 - 0.008ms returns 0
T264C 000:660.119 JLINK_WriteReg(R7, 0x00000000)
T264C 000:660.125 - 0.008ms returns 0
T264C 000:660.132 JLINK_WriteReg(R8, 0x00000000)
T264C 000:660.138 - 0.008ms returns 0
T264C 000:660.145 JLINK_WriteReg(R9, 0x20000160)
T264C 000:660.151 - 0.008ms returns 0
T264C 000:660.159 JLINK_WriteReg(R10, 0x00000000)
T264C 000:660.165 - 0.008ms returns 0
T264C 000:660.172 JLINK_WriteReg(R11, 0x00000000)
T264C 000:660.178 - 0.008ms returns 0
T264C 000:660.185 JLINK_WriteReg(R12, 0x00000000)
T264C 000:660.191 - 0.008ms returns 0
T264C 000:660.198 JLINK_WriteReg(R13 (SP), 0x20001000)
T264C 000:660.205 - 0.009ms returns 0
T264C 000:660.212 JLINK_WriteReg(R14, 0x20000001)
T264C 000:660.218 - 0.008ms returns 0
T264C 000:660.226 JLINK_WriteReg(R15 (PC), 0x2000006A)
T264C 000:660.232 - 0.009ms returns 0
T264C 000:660.239 JLINK_WriteReg(XPSR, 0x01000000)
T264C 000:660.245 - 0.008ms returns 0
T264C 000:660.253 JLINK_WriteReg(MSP, 0x20001000)
T264C 000:660.259 - 0.008ms returns 0
T264C 000:660.266 JLINK_WriteReg(PSP, 0x20001000)
T264C 000:660.272 - 0.008ms returns 0
T264C 000:660.279 JLINK_WriteReg(CFBP, 0x00000000)
T264C 000:660.286 - 0.009ms returns 0
T264C 000:660.295 JLINK_SetBPEx(Addr = 0x20000000, Type = 0xFFFFFFF2)
T264C 000:660.307 - 0.015ms returns 0x00000003
T264C 000:660.314 JLINK_Go()
T264C 000:660.331   CPU_ReadMem(4 bytes @ 0xE0001000)
T264C 000:664.866 - 4.559ms
T264C 000:664.882 JLINK_IsHalted()
T264C 000:668.686   CPU_ReadMem(2 bytes @ 0x20000000)
T264C 000:669.521 - 4.645ms returns TRUE
T264C 000:669.535 JLINK_ReadReg(R15 (PC))
T264C 000:669.544 - 0.012ms returns 0x20000000
T264C 000:669.552 JLINK_ClrBPEx(BPHandle = 0x00000003)
T264C 000:669.559 - 0.009ms returns 0x00
T264C 000:669.567 JLINK_ReadReg(R0)
T264C 000:669.573 - 0.008ms returns 0x00000000
T264C 000:675.064 JLINK_WriteMem(0x20000000, 0x164 Bytes, ...)
T264C 000:675.077   Data:  00 BE 0A E0 0D 78 2D 06 68 40 08 24 40 00 00 D3 ...
T264C 000:675.098   CPU_WriteMem(356 bytes @ 0x20000000)
T264C 000:680.105 - 5.050ms returns 0x164
T264C 000:680.145 JLINK_HasError()
T264C 000:680.155 JLINK_WriteReg(R0, 0x08000000)
T264C 000:680.164 - 0.012ms returns 0
T264C 000:680.172 JLINK_WriteReg(R1, 0x00B71B00)
T264C 000:680.178 - 0.009ms returns 0
T264C 000:680.186 JLINK_WriteReg(R2, 0x00000002)
T264C 000:680.192 - 0.008ms returns 0
T264C 000:680.199 JLINK_WriteReg(R3, 0x00000000)
T264C 000:680.205 - 0.008ms returns 0
T264C 000:680.212 JLINK_WriteReg(R4, 0x00000000)
T264C 000:680.218 - 0.008ms returns 0
T264C 000:680.225 JLINK_WriteReg(R5, 0x00000000)
T264C 000:680.231 - 0.008ms returns 0
T264C 000:680.239 JLINK_WriteReg(R6, 0x00000000)
T264C 000:680.245 - 0.008ms returns 0
T264C 000:680.252 JLINK_WriteReg(R7, 0x00000000)
T264C 000:680.258 - 0.008ms returns 0
T264C 000:680.265 JLINK_WriteReg(R8, 0x00000000)
T264C 000:680.271 - 0.008ms returns 0
T264C 000:680.278 JLINK_WriteReg(R9, 0x20000160)
T264C 000:680.284 - 0.008ms returns 0
T264C 000:680.292 JLINK_WriteReg(R10, 0x00000000)
T264C 000:680.298 - 0.008ms returns 0
T264C 000:680.305 JLINK_WriteReg(R11, 0x00000000)
T264C 000:680.311 - 0.008ms returns 0
T264C 000:680.318 JLINK_WriteReg(R12, 0x00000000)
T264C 000:680.324 - 0.008ms returns 0
T264C 000:680.331 JLINK_WriteReg(R13 (SP), 0x20001000)
T264C 000:680.393 - 0.068ms returns 0
T264C 000:680.404 JLINK_WriteReg(R14, 0x20000001)
T264C 000:680.411 - 0.009ms returns 0
T264C 000:680.418 JLINK_WriteReg(R15 (PC), 0x20000038)
T264C 000:680.424 - 0.009ms returns 0
T264C 000:680.432 JLINK_WriteReg(XPSR, 0x01000000)
T264C 000:680.438 - 0.008ms returns 0
T264C 000:680.445 JLINK_WriteReg(MSP, 0x20001000)
T264C 000:680.451 - 0.008ms returns 0
T264C 000:680.458 JLINK_WriteReg(PSP, 0x20001000)
T264C 000:680.464 - 0.008ms returns 0
T264C 000:680.471 JLINK_WriteReg(CFBP, 0x00000000)
T264C 000:680.477 - 0.008ms returns 0
T264C 000:680.485 JLINK_SetBPEx(Addr = 0x20000000, Type = 0xFFFFFFF2)
T264C 000:680.496   CPU_ReadMem(2 bytes @ 0x20000000)
T264C 000:681.299 - 0.820ms returns 0x00000004
T264C 000:681.313 JLINK_Go()
T264C 000:681.322   CPU_WriteMem(2 bytes @ 0x20000000)
T264C 000:682.062   CPU_ReadMem(4 bytes @ 0xE0001000)
T264C 000:686.461 - 5.164ms
T264C 000:686.488 JLINK_IsHalted()
T264C 000:690.277   CPU_ReadMem(2 bytes @ 0x20000000)
T264C 000:691.060 - 4.577ms returns TRUE
T264C 000:691.074 JLINK_ReadReg(R15 (PC))
T264C 000:691.101 - 0.029ms returns 0x20000000
T264C 000:691.203 JLINK_ClrBPEx(BPHandle = 0x00000004)
T264C 000:691.214 - 0.014ms returns 0x00
T264C 000:691.222 JLINK_ReadReg(R0)
T264C 000:691.229 - 0.009ms returns 0x00000000
T264C 000:691.543 JLINK_WriteMem(0x20000164, 0x29C Bytes, ...)
T264C 000:691.552   Data:  A8 09 00 20 11 02 00 08 B9 6A 00 08 8F 3A 00 08 ...
T264C 000:691.569   CPU_WriteMem(668 bytes @ 0x20000164)
T264C 000:700.127 - 8.603ms returns 0x29C
T264C 000:700.157 JLINK_WriteMem(0x20000400, 0x164 Bytes, ...)
T264C 000:700.165   Data:  01 24 01 E0 AF F3 00 80 00 21 0A 22 06 F1 24 07 ...
T264C 000:700.189   CPU_WriteMem(356 bytes @ 0x20000400)
T264C 000:705.304 - 5.154ms returns 0x164
T264C 000:705.320 JLINK_HasError()
T264C 000:705.330 JLINK_WriteReg(R0, 0x08000000)
T264C 000:705.339 - 0.012ms returns 0
T264C 000:705.347 JLINK_WriteReg(R1, 0x00000400)
T264C 000:705.353 - 0.009ms returns 0
T264C 000:705.361 JLINK_WriteReg(R2, 0x20000164)
T264C 000:705.367 - 0.008ms returns 0
T264C 000:705.374 JLINK_WriteReg(R3, 0x00000000)
T264C 000:705.380 - 0.008ms returns 0
T264C 000:705.387 JLINK_WriteReg(R4, 0x00000000)
T264C 000:705.393 - 0.008ms returns 0
T264C 000:705.401 JLINK_WriteReg(R5, 0x00000000)
T264C 000:705.407 - 0.008ms returns 0
T264C 000:705.414 JLINK_WriteReg(R6, 0x00000000)
T264C 000:705.420 - 0.008ms returns 0
T264C 000:705.427 JLINK_WriteReg(R7, 0x00000000)
T264C 000:705.433 - 0.008ms returns 0
T264C 000:705.440 JLINK_WriteReg(R8, 0x00000000)
T264C 000:705.446 - 0.008ms returns 0
T264C 000:705.454 JLINK_WriteReg(R9, 0x20000160)
T264C 000:705.460 - 0.008ms returns 0
T264C 000:705.467 JLINK_WriteReg(R10, 0x00000000)
T264C 000:705.473 - 0.009ms returns 0
T264C 000:705.480 JLINK_WriteReg(R11, 0x00000000)
T264C 000:705.486 - 0.008ms returns 0
T264C 000:705.493 JLINK_WriteReg(R12, 0x00000000)
T264C 000:705.499 - 0.008ms returns 0
T264C 000:705.507 JLINK_WriteReg(R13 (SP), 0x20001000)
T264C 000:705.513 - 0.009ms returns 0
T264C 000:705.521 JLINK_WriteReg(R14, 0x20000001)
T264C 000:705.527 - 0.008ms returns 0
T264C 000:705.534 JLINK_WriteReg(R15 (PC), 0x200000F4)
T264C 000:705.540 - 0.009ms returns 0
T264C 000:705.547 JLINK_WriteReg(XPSR, 0x01000000)
T264C 000:705.553 - 0.009ms returns 0
T264C 000:705.561 JLINK_WriteReg(MSP, 0x20001000)
T264C 000:705.567 - 0.008ms returns 0
T264C 000:705.574 JLINK_WriteReg(PSP, 0x20001000)
T264C 000:705.580 - 0.009ms returns 0
T264C 000:705.587 JLINK_WriteReg(CFBP, 0x00000000)
T264C 000:705.593 - 0.008ms returns 0
T264C 000:705.601 JLINK_SetBPEx(Addr = 0x20000000, Type = 0xFFFFFFF2)
T264C 000:705.608 - 0.010ms returns 0x00000005
T264C 000:705.616 JLINK_Go()
T264C 000:705.628   CPU_ReadMem(4 bytes @ 0xE0001000)
T264C 000:710.052 - 4.443ms
T264C 000:710.113 JLINK_IsHalted()
T264C 000:710.855 - 0.749ms returns FALSE
T264C 000:710.873 JLINK_HasError()
T264C 000:715.855 JLINK_IsHalted()
T264C 000:716.736 - 0.895ms returns FALSE
T264C 000:716.779 JLINK_HasError()
T264C 000:718.883 JLINK_IsHalted()
T264C 000:719.697 - 0.821ms returns FALSE
T264C 000:719.711 JLINK_HasError()
T264C 000:720.843 JLINK_IsHalted()
T264C 000:721.666 - 0.830ms returns FALSE
T264C 000:721.680 JLINK_HasError()
T264C 000:722.858 JLINK_IsHalted()
T264C 000:723.714 - 0.862ms returns FALSE
T264C 000:723.727 JLINK_HasError()
T264C 000:724.860 JLINK_IsHalted()
T264C 000:725.639 - 0.788ms returns FALSE
T264C 000:725.660 JLINK_HasError()
T264C 000:726.840 JLINK_IsHalted()
T264C 000:727.633 - 0.800ms returns FALSE
T264C 000:727.648 JLINK_HasError()
T264C 000:728.846 JLINK_IsHalted()
T264C 000:729.612 - 0.789ms returns FALSE
T264C 000:729.646 JLINK_HasError()
T264C 000:730.831 JLINK_IsHalted()
T264C 000:731.606 - 0.781ms returns FALSE
T264C 000:731.620 JLINK_HasError()
T264C 000:732.829 JLINK_IsHalted()
T264C 000:733.629 - 0.806ms returns FALSE
T264C 000:733.642 JLINK_HasError()
T264C 000:734.814 JLINK_IsHalted()
T264C 000:735.625 - 0.817ms returns FALSE
T264C 000:735.638 JLINK_HasError()
T264C 000:736.828 JLINK_IsHalted()
T264C 000:737.640 - 0.818ms returns FALSE
T264C 000:737.653 JLINK_HasError()
T264C 000:738.809 JLINK_IsHalted()
T264C 000:739.622 - 0.820ms returns FALSE
T264C 000:739.636 JLINK_HasError()
T264C 000:740.804 JLINK_IsHalted()
T264C 000:744.780   CPU_ReadMem(2 bytes @ 0x20000000)
T264C 000:745.593 - 4.795ms returns TRUE
T264C 000:745.610 JLINK_ReadReg(R15 (PC))
T264C 000:745.639 - 0.031ms returns 0x20000000
T264C 000:745.759 JLINK_ClrBPEx(BPHandle = 0x00000005)
T264C 000:745.773 - 0.017ms returns 0x00
T264C 000:745.785 JLINK_ReadReg(R0)
T264C 000:745.795 - 0.014ms returns 0x00000000
T264C 000:746.298 JLINK_WriteMem(0x20000164, 0x29C Bytes, ...)
T264C 000:746.311   Data:  87 FA 00 68 10 BD 10 B5 04 46 00 F0 81 FA 04 60 ...
T264C 000:746.343   CPU_WriteMem(668 bytes @ 0x20000164)
T264C 000:754.819 - 8.528ms returns 0x29C
T264C 000:754.833 JLINK_WriteMem(0x20000400, 0x164 Bytes, ...)
T264C 000:754.840   Data:  07 E0 20 68 81 07 01 D5 2B 20 02 E0 20 21 01 EA ...
T264C 000:754.853   CPU_WriteMem(356 bytes @ 0x20000400)
T264C 000:759.927 - 5.102ms returns 0x164
T264C 000:759.944 JLINK_HasError()
T264C 000:759.954 JLINK_WriteReg(R0, 0x08000400)
T264C 000:759.963 - 0.012ms returns 0
T264C 000:759.971 JLINK_WriteReg(R1, 0x00000400)
T264C 000:759.978 - 0.009ms returns 0
T264C 000:759.986 JLINK_WriteReg(R2, 0x20000164)
T264C 000:759.993 - 0.009ms returns 0
T264C 000:760.001 JLINK_WriteReg(R3, 0x00000000)
T264C 000:760.007 - 0.009ms returns 0
T264C 000:760.015 JLINK_WriteReg(R4, 0x00000000)
T264C 000:760.021 - 0.009ms returns 0
T264C 000:760.029 JLINK_WriteReg(R5, 0x00000000)
T264C 000:760.035 - 0.009ms returns 0
T264C 000:760.043 JLINK_WriteReg(R6, 0x00000000)
T264C 000:760.049 - 0.009ms returns 0
T264C 000:760.057 JLINK_WriteReg(R7, 0x00000000)
T264C 000:760.063 - 0.009ms returns 0
T264C 000:760.071 JLINK_WriteReg(R8, 0x00000000)
T264C 000:760.078 - 0.009ms returns 0
T264C 000:760.085 JLINK_WriteReg(R9, 0x20000160)
T264C 000:760.092 - 0.009ms returns 0
T264C 000:760.099 JLINK_WriteReg(R10, 0x00000000)
T264C 000:760.106 - 0.009ms returns 0
T264C 000:760.113 JLINK_WriteReg(R11, 0x00000000)
T264C 000:760.120 - 0.009ms returns 0
T264C 000:760.127 JLINK_WriteReg(R12, 0x00000000)
T264C 000:760.134 - 0.009ms returns 0
T264C 000:760.141 JLINK_WriteReg(R13 (SP), 0x20001000)
T264C 000:760.148 - 0.010ms returns 0
T264C 000:760.156 JLINK_WriteReg(R14, 0x20000001)
T264C 000:760.162 - 0.009ms returns 0
T264C 000:760.170 JLINK_WriteReg(R15 (PC), 0x200000F4)
T264C 000:760.177 - 0.009ms returns 0
T264C 000:760.184 JLINK_WriteReg(XPSR, 0x01000000)
T264C 000:760.191 - 0.009ms returns 0
T264C 000:760.198 JLINK_WriteReg(MSP, 0x20001000)
T264C 000:760.205 - 0.009ms returns 0
T264C 000:760.212 JLINK_WriteReg(PSP, 0x20001000)
T264C 000:760.219 - 0.009ms returns 0
T264C 000:760.226 JLINK_WriteReg(CFBP, 0x00000000)
T264C 000:760.233 - 0.009ms returns 0
T264C 000:760.241 JLINK_SetBPEx(Addr = 0x20000000, Type = 0xFFFFFFF2)
T264C 000:760.253 - 0.018ms returns 0x00000006
T264C 000:760.264 JLINK_Go()
T264C 000:760.278   CPU_ReadMem(4 bytes @ 0xE0001000)
T264C 000:764.575 - 4.322ms
T264C 000:764.594 JLINK_IsHalted()
T264C 000:765.193 - 0.605ms returns FALSE
T264C 000:765.206 JLINK_HasError()
T264C 000:766.679 JLINK_IsHalted()
T264C 000:767.386 - 0.713ms returns FALSE
T264C 000:767.400 JLINK_HasError()
T264C 000:768.715 JLINK_IsHalted()
T264C 000:769.465 - 0.757ms returns FALSE
T264C 000:769.479 JLINK_HasError()
T264C 000:770.711 JLINK_IsHalted()
T264C 000:771.574 - 0.870ms returns FALSE
T264C 000:771.591 JLINK_HasError()
T264C 000:772.697 JLINK_IsHalted()
T264C 000:773.458 - 0.768ms returns FALSE
T264C 000:773.472 JLINK_HasError()
T264C 000:774.693 JLINK_IsHalted()
T264C 000:775.578 - 0.891ms returns FALSE
T264C 000:775.592 JLINK_HasError()
T264C 000:776.689 JLINK_IsHalted()
T264C 000:777.424 - 0.741ms returns FALSE
T264C 000:777.438 JLINK_HasError()
T264C 000:778.689 JLINK_IsHalted()
T264C 000:779.460 - 0.777ms returns FALSE
T264C 000:779.474 JLINK_HasError()
T264C 000:780.699 JLINK_IsHalted()
T264C 000:781.541 - 0.848ms returns FALSE
T264C 000:781.555 JLINK_HasError()
T264C 000:782.678 JLINK_IsHalted()
T264C 000:783.425 - 0.753ms returns FALSE
T264C 000:783.439 JLINK_HasError()
T264C 000:784.671 JLINK_IsHalted()
T264C 000:785.425 - 0.760ms returns FALSE
T264C 000:785.439 JLINK_HasError()
T264C 000:786.679 JLINK_IsHalted()
T264C 000:787.566 - 0.893ms returns FALSE
T264C 000:787.579 JLINK_HasError()
T264C 000:789.662 JLINK_IsHalted()
T264C 000:790.476 - 0.820ms returns FALSE
T264C 000:790.490 JLINK_HasError()
T264C 000:791.678 JLINK_IsHalted()
T264C 000:792.567 - 0.895ms returns FALSE
T264C 000:792.580 JLINK_HasError()
T264C 000:794.638 JLINK_IsHalted()
T264C 000:795.384 - 0.752ms returns FALSE
T264C 000:795.398 JLINK_HasError()
T264C 000:796.648 JLINK_IsHalted()
T264C 000:800.513   CPU_ReadMem(2 bytes @ 0x20000000)
T264C 000:801.335 - 4.693ms returns TRUE
T264C 000:801.351 JLINK_ReadReg(R15 (PC))
T264C 000:801.375 - 0.026ms returns 0x20000000
T264C 000:801.500 JLINK_ClrBPEx(BPHandle = 0x00000006)
T264C 000:801.512 - 0.015ms returns 0x00
T264C 000:801.521 JLINK_ReadReg(R0)
T264C 000:801.528 - 0.009ms returns 0x00000000
T264C 000:802.056 JLINK_WriteMem(0x20000164, 0x29C Bytes, ...)
T264C 000:802.066   Data:  97 FB F1 F2 01 FB 1C 7C 17 46 0C F1 30 0C 08 F8 ...
T264C 000:802.082   CPU_WriteMem(668 bytes @ 0x20000164)
T264C 000:810.744 - 8.694ms returns 0x29C
T264C 000:810.758 JLINK_WriteMem(0x20000400, 0x164 Bytes, ...)
T264C 000:810.779   Data:  98 A0 80 46 00 27 FA 44 AA F1 BE 0A 0E E0 E0 07 ...
T264C 000:810.793   CPU_WriteMem(356 bytes @ 0x20000400)
T264C 000:815.808 - 5.057ms returns 0x164
T264C 000:815.824 JLINK_HasError()
T264C 000:815.833 JLINK_WriteReg(R0, 0x08000800)
T264C 000:815.841 - 0.011ms returns 0
T264C 000:815.849 JLINK_WriteReg(R1, 0x00000400)
T264C 000:815.855 - 0.009ms returns 0
T264C 000:815.863 JLINK_WriteReg(R2, 0x20000164)
T264C 000:815.869 - 0.008ms returns 0
T264C 000:815.876 JLINK_WriteReg(R3, 0x00000000)
T264C 000:815.882 - 0.008ms returns 0
T264C 000:815.890 JLINK_WriteReg(R4, 0x00000000)
T264C 000:815.896 - 0.008ms returns 0
T264C 000:815.903 JLINK_WriteReg(R5, 0x00000000)
T264C 000:815.909 - 0.008ms returns 0
T264C 000:815.916 JLINK_WriteReg(R6, 0x00000000)
T264C 000:815.922 - 0.008ms returns 0
T264C 000:815.929 JLINK_WriteReg(R7, 0x00000000)
T264C 000:815.935 - 0.008ms returns 0
T264C 000:815.943 JLINK_WriteReg(R8, 0x00000000)
T264C 000:815.949 - 0.008ms returns 0
T264C 000:815.956 JLINK_WriteReg(R9, 0x20000160)
T264C 000:815.962 - 0.008ms returns 0
T264C 000:815.969 JLINK_WriteReg(R10, 0x00000000)
T264C 000:815.975 - 0.008ms returns 0
T264C 000:815.983 JLINK_WriteReg(R11, 0x00000000)
T264C 000:815.989 - 0.008ms returns 0
T264C 000:815.996 JLINK_WriteReg(R12, 0x00000000)
T264C 000:816.002 - 0.008ms returns 0
T264C 000:816.009 JLINK_WriteReg(R13 (SP), 0x20001000)
T264C 000:816.016 - 0.009ms returns 0
T264C 000:816.027 JLINK_WriteReg(R14, 0x20000001)
T264C 000:816.036 - 0.011ms returns 0
T264C 000:816.044 JLINK_WriteReg(R15 (PC), 0x200000F4)
T264C 000:816.050 - 0.009ms returns 0
T264C 000:816.057 JLINK_WriteReg(XPSR, 0x01000000)
T264C 000:816.063 - 0.009ms returns 0
T264C 000:816.071 JLINK_WriteReg(MSP, 0x20001000)
T264C 000:816.077 - 0.008ms returns 0
T264C 000:816.084 JLINK_WriteReg(PSP, 0x20001000)
T264C 000:816.090 - 0.009ms returns 0
T264C 000:816.097 JLINK_WriteReg(CFBP, 0x00000000)
T264C 000:816.103 - 0.009ms returns 0
T264C 000:816.111 JLINK_SetBPEx(Addr = 0x20000000, Type = 0xFFFFFFF2)
T264C 000:816.118 - 0.010ms returns 0x00000007
T264C 000:816.126 JLINK_Go()
T264C 000:816.138   CPU_ReadMem(4 bytes @ 0xE0001000)
T264C 000:820.968 - 4.849ms
T264C 000:820.982 JLINK_IsHalted()
T264C 000:821.836 - 0.861ms returns FALSE
T264C 000:821.851 JLINK_HasError()
T264C 000:823.892 JLINK_IsHalted()
T264C 000:824.662 - 0.778ms returns FALSE
T264C 000:824.678 JLINK_HasError()
T264C 000:826.848 JLINK_IsHalted()
T264C 000:827.663 - 0.822ms returns FALSE
T264C 000:827.678 JLINK_HasError()
T264C 000:829.823 JLINK_IsHalted()
T264C 000:830.581 - 0.765ms returns FALSE
T264C 000:830.595 JLINK_HasError()
T264C 000:831.720 JLINK_IsHalted()
T264C 000:832.579 - 0.866ms returns FALSE
T264C 000:832.593 JLINK_HasError()
T264C 000:833.834 JLINK_IsHalted()
T264C 000:834.716 - 0.904ms returns FALSE
T264C 000:834.746 JLINK_HasError()
T264C 000:836.677 JLINK_IsHalted()
T264C 000:837.513 - 0.843ms returns FALSE
T264C 000:837.527 JLINK_HasError()
T264C 000:840.812 JLINK_IsHalted()
T264C 000:841.599 - 0.795ms returns FALSE
T264C 000:841.615 JLINK_HasError()
T264C 000:843.796 JLINK_IsHalted()
T264C 000:844.672 - 0.882ms returns FALSE
T264C 000:844.686 JLINK_HasError()
T264C 000:846.796 JLINK_IsHalted()
T264C 000:847.675 - 0.885ms returns FALSE
T264C 000:847.689 JLINK_HasError()
T264C 000:849.769 JLINK_IsHalted()
T264C 000:850.562 - 0.801ms returns FALSE
T264C 000:850.579 JLINK_HasError()
T264C 000:852.758 JLINK_IsHalted()
T264C 000:856.834   CPU_ReadMem(2 bytes @ 0x20000000)
T264C 000:857.910 - 5.158ms returns TRUE
T264C 000:857.924 JLINK_ReadReg(R15 (PC))
T264C 000:857.933 - 0.012ms returns 0x20000000
T264C 000:857.941 JLINK_ClrBPEx(BPHandle = 0x00000007)
T264C 000:857.948 - 0.009ms returns 0x00
T264C 000:857.956 JLINK_ReadReg(R0)
T264C 000:857.962 - 0.009ms returns 0x00000000
T264C 000:858.469 JLINK_WriteMem(0x20000164, 0x29C Bytes, ...)
T264C 000:858.479   Data:  01 F0 18 01 22 FA 01 F0 CB 40 C1 F1 20 01 DB B2 ...
T264C 000:858.494   CPU_WriteMem(668 bytes @ 0x20000164)
T264C 000:867.166 - 8.726ms returns 0x29C
T264C 000:867.211 JLINK_WriteMem(0x20000400, 0x164 Bytes, ...)
T264C 000:867.219   Data:  57 72 0C FB 08 F7 34 BF A2 EB C7 02 B2 EB C7 02 ...
T264C 000:867.248   CPU_WriteMem(356 bytes @ 0x20000400)
T264C 000:872.550 - 5.386ms returns 0x164
T264C 000:872.611 JLINK_HasError()
T264C 000:872.636 JLINK_WriteReg(R0, 0x08000C00)
T264C 000:872.665 - 0.032ms returns 0
T264C 000:872.673 JLINK_WriteReg(R1, 0x00000400)
T264C 000:872.679 - 0.009ms returns 0
T264C 000:872.687 JLINK_WriteReg(R2, 0x20000164)
T264C 000:872.693 - 0.008ms returns 0
T264C 000:872.700 JLINK_WriteReg(R3, 0x00000000)
T264C 000:872.706 - 0.008ms returns 0
T264C 000:872.713 JLINK_WriteReg(R4, 0x00000000)
T264C 000:872.719 - 0.008ms returns 0
T264C 000:872.726 JLINK_WriteReg(R5, 0x00000000)
T264C 000:872.732 - 0.008ms returns 0
T264C 000:872.739 JLINK_WriteReg(R6, 0x00000000)
T264C 000:872.745 - 0.008ms returns 0
T264C 000:872.752 JLINK_WriteReg(R7, 0x00000000)
T264C 000:872.758 - 0.008ms returns 0
T264C 000:872.765 JLINK_WriteReg(R8, 0x00000000)
T264C 000:872.771 - 0.008ms returns 0
T264C 000:872.778 JLINK_WriteReg(R9, 0x20000160)
T264C 000:872.783 - 0.008ms returns 0
T264C 000:872.791 JLINK_WriteReg(R10, 0x00000000)
T264C 000:872.796 - 0.008ms returns 0
T264C 000:872.803 JLINK_WriteReg(R11, 0x00000000)
T264C 000:872.809 - 0.008ms returns 0
T264C 000:872.816 JLINK_WriteReg(R12, 0x00000000)
T264C 000:872.827 - 0.017ms returns 0
T264C 000:872.838 JLINK_WriteReg(R13 (SP), 0x20001000)
T264C 000:872.845 - 0.009ms returns 0
T264C 000:872.852 JLINK_WriteReg(R14, 0x20000001)
T264C 000:872.858 - 0.008ms returns 0
T264C 000:872.865 JLINK_WriteReg(R15 (PC), 0x200000F4)
T264C 000:872.871 - 0.008ms returns 0
T264C 000:872.878 JLINK_WriteReg(XPSR, 0x01000000)
T264C 000:872.884 - 0.008ms returns 0
T264C 000:872.892 JLINK_WriteReg(MSP, 0x20001000)
T264C 000:872.897 - 0.008ms returns 0
T264C 000:872.905 JLINK_WriteReg(PSP, 0x20001000)
T264C 000:872.911 - 0.008ms returns 0
T264C 000:872.918 JLINK_WriteReg(CFBP, 0x00000000)
T264C 000:872.923 - 0.008ms returns 0
T264C 000:872.931 JLINK_SetBPEx(Addr = 0x20000000, Type = 0xFFFFFFF2)
T264C 000:872.938 - 0.010ms returns 0x00000008
T264C 000:872.946 JLINK_Go()
T264C 000:872.961   CPU_ReadMem(4 bytes @ 0xE0001000)
T264C 000:878.860 - 5.937ms
T264C 000:878.898 JLINK_IsHalted()
T264C 000:880.084 - 1.209ms returns FALSE
T264C 000:880.125 JLINK_HasError()
T264C 000:881.705 JLINK_IsHalted()
T264C 000:882.587 - 0.921ms returns FALSE
T264C 000:882.641 JLINK_HasError()
T264C 000:884.782 JLINK_IsHalted()
T264C 000:886.121 - 1.362ms returns FALSE
T264C 000:886.157 JLINK_HasError()
T264C 000:887.806 JLINK_IsHalted()
T264C 000:889.044 - 1.261ms returns FALSE
T264C 000:889.080 JLINK_HasError()
T264C 000:890.804 JLINK_IsHalted()
T264C 000:891.960 - 1.166ms returns FALSE
T264C 000:891.979 JLINK_HasError()
T264C 000:893.730 JLINK_IsHalted()
T264C 000:894.914 - 1.193ms returns FALSE
T264C 000:894.932 JLINK_HasError()
T264C 000:896.710 JLINK_IsHalted()
T264C 000:897.749 - 1.048ms returns FALSE
T264C 000:897.766 JLINK_HasError()
T264C 000:899.533 JLINK_IsHalted()
T264C 000:900.712 - 1.186ms returns FALSE
T264C 000:900.751 JLINK_HasError()
T264C 000:902.714 JLINK_IsHalted()
T264C 000:903.679 - 0.972ms returns FALSE
T264C 000:903.693 JLINK_HasError()
T264C 000:905.683 JLINK_IsHalted()
T264C 000:906.656 - 0.979ms returns FALSE
T264C 000:906.670 JLINK_HasError()
T264C 000:908.723 JLINK_IsHalted()
T264C 000:913.037   CPU_ReadMem(2 bytes @ 0x20000000)
T264C 000:913.975 - 5.258ms returns TRUE
T264C 000:913.990 JLINK_ReadReg(R15 (PC))
T264C 000:913.999 - 0.012ms returns 0x20000000
T264C 000:914.007 JLINK_ClrBPEx(BPHandle = 0x00000008)
T264C 000:914.014 - 0.009ms returns 0x00
T264C 000:914.021 JLINK_ReadReg(R0)
T264C 000:914.028 - 0.009ms returns 0x00000000
T264C 000:914.574 JLINK_WriteMem(0x20000164, 0x29C Bytes, ...)
T264C 000:914.584   Data:  56 55 55 55 54 54 53 53 52 52 52 51 51 50 50 50 ...
T264C 000:914.600   CPU_WriteMem(668 bytes @ 0x20000164)
T264C 000:923.535 - 8.998ms returns 0x29C
T264C 000:923.585 JLINK_WriteMem(0x20000400, 0x164 Bytes, ...)
T264C 000:923.592   Data:  07 F4 06 FB 07 F7 0C FB 06 F1 05 FB 0C FC 11 EB ...
T264C 000:923.615   CPU_WriteMem(356 bytes @ 0x20000400)
T264C 000:929.678 - 6.133ms returns 0x164
T264C 000:929.781 JLINK_HasError()
T264C 000:929.799 JLINK_WriteReg(R0, 0x08001000)
T264C 000:929.817 - 0.025ms returns 0
T264C 000:929.832 JLINK_WriteReg(R1, 0x00000400)
T264C 000:929.844 - 0.016ms returns 0
T264C 000:929.855 JLINK_WriteReg(R2, 0x20000164)
T264C 000:929.863 - 0.010ms returns 0
T264C 000:929.870 JLINK_WriteReg(R3, 0x00000000)
T264C 000:929.879 - 0.012ms returns 0
T264C 000:929.889 JLINK_WriteReg(R4, 0x00000000)
T264C 000:929.898 - 0.012ms returns 0
T264C 000:929.908 JLINK_WriteReg(R5, 0x00000000)
T264C 000:929.916 - 0.011ms returns 0
T264C 000:929.925 JLINK_WriteReg(R6, 0x00000000)
T264C 000:929.934 - 0.012ms returns 0
T264C 000:929.944 JLINK_WriteReg(R7, 0x00000000)
T264C 000:929.954 - 0.014ms returns 0
T264C 000:929.965 JLINK_WriteReg(R8, 0x00000000)
T264C 000:929.974 - 0.012ms returns 0
T264C 000:929.984 JLINK_WriteReg(R9, 0x20000160)
T264C 000:929.994 - 0.014ms returns 0
T264C 000:930.005 JLINK_WriteReg(R10, 0x00000000)
T264C 000:930.014 - 0.011ms returns 0
T264C 000:930.022 JLINK_WriteReg(R11, 0x00000000)
T264C 000:930.049 - 0.030ms returns 0
T264C 000:930.057 JLINK_WriteReg(R12, 0x00000000)
T264C 000:930.109 - 0.056ms returns 0
T264C 000:930.118 JLINK_WriteReg(R13 (SP), 0x20001000)
T264C 000:930.145 - 0.044ms returns 0
T264C 000:930.167 JLINK_WriteReg(R14, 0x20000001)
T264C 000:930.193 - 0.028ms returns 0
T264C 000:930.218 JLINK_WriteReg(R15 (PC), 0x200000F4)
T264C 000:930.226 - 0.011ms returns 0
T264C 000:930.254 JLINK_WriteReg(XPSR, 0x01000000)
T264C 000:930.275 - 0.023ms returns 0
T264C 000:930.302 JLINK_WriteReg(MSP, 0x20001000)
T264C 000:930.309 - 0.011ms returns 0
T264C 000:930.318 JLINK_WriteReg(PSP, 0x20001000)
T264C 000:930.341 - 0.026ms returns 0
T264C 000:930.349 JLINK_WriteReg(CFBP, 0x00000000)
T264C 000:930.355 - 0.010ms returns 0
T264C 000:930.364 JLINK_SetBPEx(Addr = 0x20000000, Type = 0xFFFFFFF2)
T264C 000:930.373 - 0.013ms returns 0x00000009
T264C 000:930.402 JLINK_Go()
T264C 000:930.437   CPU_ReadMem(4 bytes @ 0xE0001000)
T264C 000:936.276 - 5.898ms
T264C 000:936.316 JLINK_IsHalted()
T264C 000:938.214 - 1.922ms returns FALSE
T264C 000:938.255 JLINK_HasError()
T264C 000:939.899 JLINK_IsHalted()
T264C 000:941.772 - 1.897ms returns FALSE
T264C 000:941.808 JLINK_HasError()
T264C 000:943.875 JLINK_IsHalted()
T264C 000:945.798 - 1.947ms returns FALSE
T264C 000:945.835 JLINK_HasError()
T264C 000:947.810 JLINK_IsHalted()
T264C 000:948.904 - 1.150ms returns FALSE
T264C 000:948.973 JLINK_HasError()
T264C 000:950.837 JLINK_IsHalted()
T264C 000:952.670 - 1.851ms returns FALSE
T264C 000:952.699 JLINK_HasError()
T264C 000:954.711 JLINK_IsHalted()
T264C 000:956.125 - 1.432ms returns FALSE
T264C 000:956.155 JLINK_HasError()
T264C 000:957.713 JLINK_IsHalted()
T264C 000:959.207 - 1.518ms returns FALSE
T264C 000:959.244 JLINK_HasError()
T264C 000:960.831 JLINK_IsHalted()
T264C 000:961.784 - 0.984ms returns FALSE
T264C 000:961.825 JLINK_HasError()
T264C 000:966.782 JLINK_IsHalted()
T264C 000:972.706   CPU_ReadMem(2 bytes @ 0x20000000)
T264C 000:974.550 - 7.790ms returns TRUE
T264C 000:974.584 JLINK_ReadReg(R15 (PC))
T264C 000:974.597 - 0.016ms returns 0x20000000
T264C 000:974.606 JLINK_ClrBPEx(BPHandle = 0x00000009)
T264C 000:974.612 - 0.009ms returns 0x00
T264C 000:974.620 JLINK_ReadReg(R0)
T264C 000:974.626 - 0.009ms returns 0x00000000
T264C 000:975.241 JLINK_WriteMem(0x20000164, 0x29C Bytes, ...)
T264C 000:975.257   Data:  70 B5 04 46 00 25 20 68 80 68 00 F0 01 00 F0 B1 ...
T264C 000:975.279   CPU_WriteMem(668 bytes @ 0x20000164)
T264C 000:984.777 - 9.558ms returns 0x29C
T264C 000:984.812 JLINK_WriteMem(0x20000400, 0x164 Bytes, ...)
T264C 000:984.819   Data:  18 43 0B 68 42 F8 23 00 00 20 10 BD 81 00 F7 FF ...
T264C 000:984.842   CPU_WriteMem(356 bytes @ 0x20000400)
T264C 000:990.747 - 5.958ms returns 0x164
T264C 000:990.787 JLINK_HasError()
T264C 000:990.798 JLINK_WriteReg(R0, 0x08001400)
T264C 000:990.811 - 0.016ms returns 0
T264C 000:990.819 JLINK_WriteReg(R1, 0x00000400)
T264C 000:990.826 - 0.009ms returns 0
T264C 000:990.924 JLINK_WriteReg(R2, 0x20000164)
T264C 000:990.939 - 0.018ms returns 0
T264C 000:990.948 JLINK_WriteReg(R3, 0x00000000)
T264C 000:990.955 - 0.010ms returns 0
T264C 000:990.963 JLINK_WriteReg(R4, 0x00000000)
T264C 000:990.969 - 0.009ms returns 0
T264C 000:990.977 JLINK_WriteReg(R5, 0x00000000)
T264C 000:990.983 - 0.009ms returns 0
T264C 000:990.990 JLINK_WriteReg(R6, 0x00000000)
T264C 000:990.996 - 0.009ms returns 0
T264C 000:991.004 JLINK_WriteReg(R7, 0x00000000)
T264C 000:991.010 - 0.009ms returns 0
T264C 000:991.018 JLINK_WriteReg(R8, 0x00000000)
T264C 000:991.024 - 0.009ms returns 0
T264C 000:991.031 JLINK_WriteReg(R9, 0x20000160)
T264C 000:991.037 - 0.009ms returns 0
T264C 000:991.074 JLINK_WriteReg(R10, 0x00000000)
T264C 000:991.080 - 0.009ms returns 0
T264C 000:991.087 JLINK_WriteReg(R11, 0x00000000)
T264C 000:991.093 - 0.009ms returns 0
T264C 000:991.101 JLINK_WriteReg(R12, 0x00000000)
T264C 000:991.107 - 0.008ms returns 0
T264C 000:991.114 JLINK_WriteReg(R13 (SP), 0x20001000)
T264C 000:991.121 - 0.009ms returns 0
T264C 000:991.128 JLINK_WriteReg(R14, 0x20000001)
T264C 000:991.138 - 0.015ms returns 0
T264C 000:991.148 JLINK_WriteReg(R15 (PC), 0x200000F4)
T264C 000:991.154 - 0.009ms returns 0
T264C 000:991.162 JLINK_WriteReg(XPSR, 0x01000000)
T264C 000:991.168 - 0.009ms returns 0
T264C 000:991.175 JLINK_WriteReg(MSP, 0x20001000)
T264C 000:991.181 - 0.008ms returns 0
T264C 000:991.189 JLINK_WriteReg(PSP, 0x20001000)
T264C 000:991.195 - 0.008ms returns 0
T264C 000:991.202 JLINK_WriteReg(CFBP, 0x00000000)
T264C 000:991.208 - 0.008ms returns 0
T264C 000:991.215 JLINK_SetBPEx(Addr = 0x20000000, Type = 0xFFFFFFF2)
T264C 000:991.223 - 0.010ms returns 0x0000000A
T264C 000:991.231 JLINK_Go()
T264C 000:991.245   CPU_ReadMem(4 bytes @ 0xE0001000)
T264C 000:997.096 - 5.888ms
T264C 000:997.131 JLINK_IsHalted()
T264C 000:998.461 - 1.354ms returns FALSE
T264C 000:998.499 JLINK_HasError()
T264C 001:000.681 JLINK_IsHalted()
T264C 001:002.209 - 1.552ms returns FALSE
T264C 001:002.266 JLINK_HasError()
T264C 001:003.489 JLINK_IsHalted()
T264C 001:004.959 - 1.479ms returns FALSE
T264C 001:004.977 JLINK_HasError()
T264C 001:006.480 JLINK_IsHalted()
T264C 001:007.517 - 1.048ms returns FALSE
T264C 001:007.536 JLINK_HasError()
T264C 001:009.440 JLINK_IsHalted()
T264C 001:010.397 - 0.965ms returns FALSE
T264C 001:010.414 JLINK_HasError()
T264C 001:012.439 JLINK_IsHalted()
T264C 001:013.409 - 0.980ms returns FALSE
T264C 001:013.427 JLINK_HasError()
T264C 001:015.253 JLINK_IsHalted()
T264C 001:016.402 - 1.177ms returns FALSE
T264C 001:016.443 JLINK_HasError()
T264C 001:018.405 JLINK_IsHalted()
T264C 001:019.617 - 1.221ms returns FALSE
T264C 001:019.635 JLINK_HasError()
T264C 001:021.590 JLINK_IsHalted()
T264C 001:022.626 - 1.052ms returns FALSE
T264C 001:022.653 JLINK_HasError()
T264C 001:024.578 JLINK_IsHalted()
T264C 001:025.785 - 1.217ms returns FALSE
T264C 001:025.805 JLINK_HasError()
T264C 001:027.545 JLINK_IsHalted()
T264C 001:032.039   CPU_ReadMem(2 bytes @ 0x20000000)
T264C 001:033.208 - 5.668ms returns TRUE
T264C 001:033.223 JLINK_ReadReg(R15 (PC))
T264C 001:033.233 - 0.013ms returns 0x20000000
T264C 001:033.241 JLINK_ClrBPEx(BPHandle = 0x0000000A)
T264C 001:033.248 - 0.009ms returns 0x00
T264C 001:033.256 JLINK_ReadReg(R0)
T264C 001:033.262 - 0.009ms returns 0x00000000
T264C 001:033.834 JLINK_WriteMem(0x20000164, 0x29C Bytes, ...)
T264C 001:033.843   Data:  79 FD 40 1B 0A 28 0C D9 A0 6A 20 F0 02 00 40 F0 ...
T264C 001:033.858   CPU_WriteMem(668 bytes @ 0x20000164)
T264C 001:042.527 - 8.717ms returns 0x29C
T264C 001:042.561 JLINK_WriteMem(0x20000400, 0x164 Bytes, ...)
T264C 001:042.568   Data:  00 28 7D D1 00 2F FC D1 A0 6A 20 F4 88 50 40 F0 ...
T264C 001:042.602   CPU_WriteMem(356 bytes @ 0x20000400)
T264C 001:048.693 - 6.161ms returns 0x164
T264C 001:048.748 JLINK_HasError()
T264C 001:048.908 JLINK_WriteReg(R0, 0x08001800)
T264C 001:048.931 - 0.026ms returns 0
T264C 001:048.939 JLINK_WriteReg(R1, 0x00000400)
T264C 001:048.945 - 0.009ms returns 0
T264C 001:048.953 JLINK_WriteReg(R2, 0x20000164)
T264C 001:048.959 - 0.008ms returns 0
T264C 001:048.966 JLINK_WriteReg(R3, 0x00000000)
T264C 001:048.972 - 0.008ms returns 0
T264C 001:048.980 JLINK_WriteReg(R4, 0x00000000)
T264C 001:048.986 - 0.008ms returns 0
T264C 001:048.993 JLINK_WriteReg(R5, 0x00000000)
T264C 001:048.999 - 0.008ms returns 0
T264C 001:049.006 JLINK_WriteReg(R6, 0x00000000)
T264C 001:049.012 - 0.008ms returns 0
T264C 001:049.019 JLINK_WriteReg(R7, 0x00000000)
T264C 001:049.025 - 0.008ms returns 0
T264C 001:049.033 JLINK_WriteReg(R8, 0x00000000)
T264C 001:049.039 - 0.008ms returns 0
T264C 001:049.046 JLINK_WriteReg(R9, 0x20000160)
T264C 001:049.052 - 0.008ms returns 0
T264C 001:049.059 JLINK_WriteReg(R10, 0x00000000)
T264C 001:049.065 - 0.008ms returns 0
T264C 001:049.072 JLINK_WriteReg(R11, 0x00000000)
T264C 001:049.078 - 0.008ms returns 0
T264C 001:049.086 JLINK_WriteReg(R12, 0x00000000)
T264C 001:049.092 - 0.008ms returns 0
T264C 001:049.099 JLINK_WriteReg(R13 (SP), 0x20001000)
T264C 001:049.106 - 0.009ms returns 0
T264C 001:049.113 JLINK_WriteReg(R14, 0x20000001)
T264C 001:049.129 - 0.018ms returns 0
T264C 001:049.136 JLINK_WriteReg(R15 (PC), 0x200000F4)
T264C 001:049.142 - 0.009ms returns 0
T264C 001:049.150 JLINK_WriteReg(XPSR, 0x01000000)
T264C 001:049.156 - 0.009ms returns 0
T264C 001:049.163 JLINK_WriteReg(MSP, 0x20001000)
T264C 001:049.169 - 0.008ms returns 0
T264C 001:049.176 JLINK_WriteReg(PSP, 0x20001000)
T264C 001:049.182 - 0.009ms returns 0
T264C 001:049.190 JLINK_WriteReg(CFBP, 0x00000000)
T264C 001:049.196 - 0.008ms returns 0
T264C 001:049.203 JLINK_SetBPEx(Addr = 0x20000000, Type = 0xFFFFFFF2)
T264C 001:049.233 - 0.032ms returns 0x0000000B
T264C 001:049.241 JLINK_Go()
T264C 001:049.258   CPU_ReadMem(4 bytes @ 0xE0001000)
T264C 001:055.598 - 6.375ms
T264C 001:055.627 JLINK_IsHalted()
T264C 001:057.109 - 1.500ms returns FALSE
T264C 001:057.139 JLINK_HasError()
T264C 001:059.817 JLINK_IsHalted()
T264C 001:061.214 - 1.415ms returns FALSE
T264C 001:061.244 JLINK_HasError()
T264C 001:062.817 JLINK_IsHalted()
T264C 001:064.291 - 1.493ms returns FALSE
T264C 001:064.321 JLINK_HasError()
T264C 001:065.492 JLINK_IsHalted()
T264C 001:066.527 - 1.064ms returns FALSE
T264C 001:066.566 JLINK_HasError()
T264C 001:067.815 JLINK_IsHalted()
T264C 001:069.274 - 1.478ms returns FALSE
T264C 001:069.304 JLINK_HasError()
T264C 001:070.791 JLINK_IsHalted()
T264C 001:072.315 - 1.542ms returns FALSE
T264C 001:072.360 JLINK_HasError()
T264C 001:073.860 JLINK_IsHalted()
T264C 001:075.209 - 1.366ms returns FALSE
T264C 001:075.238 JLINK_HasError()
T264C 001:076.639 JLINK_IsHalted()
T264C 001:078.063 - 1.441ms returns FALSE
T264C 001:078.089 JLINK_HasError()
T264C 001:079.602 JLINK_IsHalted()
T264C 001:080.572 - 0.981ms returns FALSE
T264C 001:080.599 JLINK_HasError()
T264C 001:082.472 JLINK_IsHalted()
T264C 001:083.598 - 1.133ms returns FALSE
T264C 001:083.613 JLINK_HasError()
T264C 001:085.587 JLINK_IsHalted()
